
T1D50 000:060 SEGGER J-Link V6.14b Log File (0002ms, 0028ms total)
T1D50 000:060 DLL Compiled: Mar  9 2017 08:46:04 (0002ms, 0028ms total)
T1D50 000:060 Logging started @ 2019-12-16 22:06 (0002ms, 0028ms total)
T1D50 000:062 JLINK_SetWarnOutHandler(...) (0000ms, 0028ms total)
T1D50 000:062 JLINK_OpenEx(...)
Firmware: J-Link V9 compiled Apr 21 2017 11:08:06
Hardware: V9.30
S/N: 59300616
Feature(s): RDI, FlashBP, FlashDL, JFlash, GDBWEBSRV Webserver running on local port 19080 (0018ms, 0046ms total)
T1D50 000:062   returns O.K. (0018ms, 0046ms total)
T1D50 000:080 JLINK_SetErrorOutHandler(...) (0000ms, 0046ms total)
T1D50 000:080 JLINK_ExecCommand("ProjectFile = "I:\工作文件夹\正在做的工作\485\485板子代码\485代码_doing\USER\JLinkSettings.ini"", ...). C:\Program Files (x86)\SEGGER\JLink_V614b\JLinkDevices.xml evaluated successfully.  returns 0x00 (0098ms, 0144ms total)
T1D50 000:180 JLINK_ExecCommand("Device = STM32F103RB", ...). Device "STM32F103RB" selected.  returns 0x00 (0004ms, 0148ms total)
T1D50 000:184 JLINK_ExecCommand("DisableConnectionTimeout", ...).   returns 0x01 (0000ms, 0148ms total)
T1D50 000:184 JLINK_GetHardwareVersion()  returns 0x16B48 (0000ms, 0148ms total)
T1D50 000:184 JLINK_GetDLLVersion()  returns 61402 (0000ms, 0148ms total)
T1D50 000:184 JLINK_GetFirmwareString(...) (0000ms, 0148ms total)
T1D50 000:191 JLINK_GetDLLVersion()  returns 61402 (0001ms, 0149ms total)
T1D50 000:192 JLINK_GetCompileDateTime() (0000ms, 0149ms total)
T1D50 000:194 JLINK_GetFirmwareString(...) (0000ms, 0149ms total)
T1D50 000:196 JLINK_GetHardwareVersion()  returns 0x16B48 (0000ms, 0149ms total)
T1D50 000:207 JLINK_TIF_Select(JLINKARM_TIF_SWD)  returns 0x00 (0000ms, 0149ms total)
T1D50 000:208 JLINK_SetSpeed(2000) (0000ms, 0150ms total)
T1D50 000:208 JLINK_GetId() >0x108 TIF>Found SWD-DP with ID 0x1BA01477 >0x0D TIF> >0x28 TIF> >0x0D TIF> >0x28 TIF> >0x0D TIF> >0x28 TIF> >0x0D TIF> >0x28 TIF> >0x0D TIF> >0x21 TIF> >0x0D TIF> >0x28 TIF> >0x0D TIF> >0x28 TIF> >0x0D TIF> >0x28 TIF> >0x0D TIF> >0x21 TIF> >0x0D TIF> >0x21 TIF> >0x0D TIF> >0x28 TIF> >0x0D TIF> >0x21 TIF> >0x0D TIF> >0x21 TIF> >0x0D TIF> >0x28 TIF> >0x0D TIF> >0x28 TIF> >0x0D TIF> >0x28 TIF> >0x0D TIF> >0x21 TIF> >0x0D TIF> >0x21 TIF> >0x0D TIF> >0x28 TIF> >0x0D TIF>
 >0x21 TIF> >0x0D TIF> >0x21 TIF> >0x0D TIF> >0x28 TIF> >0x0D TIF> >0x21 TIF> >0x0D TIF> >0x21 TIF> >0x0D TIF> >0x28 TIF> >0x0D TIF> >0x21 TIF> >0x0D TIF> >0x21 TIF> >0x0D TIF> >0x28 TIF> >0x0D TIF> >0x21 TIF> >0x0D TIF> >0x21 TIF> >0x108 TIF>Found SWD-DP with ID 0x1BA01477 >0x0D TIF> >0x28 TIF> >0x0D TIF> >0x28 TIF> >0x0D TIF> >0x28 TIF> >0x0D TIF> >0x28 TIF> >0x0D TIF> >0x21 TIF> >0x0D TIF> >0x28 TIF> >0x0D TIF> >0x28 TIF> >0x0D TIF> >0x21 TIF> >0x0D TIF> >0x21 TIF> >0x0D TIF> >0x21 TIF>
AP-IDR: 0x14770011, Type: AHB-APAHB-AP ROM: 0xE00FF000 (Base addr. of first ROM table) >0x0D TIF> >0x28 TIF> >0x0D TIF> >0x28 TIF> >0x0D TIF> >0x28 TIF> >0x0D TIF> >0x21 TIF> >0x0D TIF> >0x21 TIF> >0x0D TIF> >0x28 TIF> >0x0D TIF> >0x21 TIF> >0x0D TIF> >0x21 TIF>Found Cortex-M3 r1p1, Little endian. -- CPU_ReadMem(4 bytes @ 0xE000EDF0) -- CPU_WriteMem(4 bytes @ 0xE000EDF0) -- CPU_ReadMem(4 bytes @ 0xE0002000)FPUnit: 6 code (BP) slots and 2 literal slots -- CPU_ReadMem(4 bytes @ 0xE000EDFC)
 -- CPU_WriteMem(4 bytes @ 0xE000EDFC) -- CPU_ReadMem(4 bytes @ 0xE0001000) -- CPU_WriteMem(4 bytes @ 0xE0001000) -- CPU_ReadMem(4 bytes @ 0xE000ED88) -- CPU_WriteMem(4 bytes @ 0xE000ED88) -- CPU_ReadMem(4 bytes @ 0xE000ED88) -- CPU_WriteMem(4 bytes @ 0xE000ED88)CoreSight components:ROMTbl 0 @ E00FF000 -- CPU_ReadMem(16 bytes @ 0xE00FF000) -- CPU_ReadMem(16 bytes @ 0xE000EFF0) -- CPU_ReadMem(16 bytes @ 0xE000EFE0)ROMTbl 0 [0]: FFF0F000, CID: B105E00D, PID: 001BB000 SCS
 -- CPU_ReadMem(16 bytes @ 0xE0001FF0) -- CPU_ReadMem(16 bytes @ 0xE0001FE0)ROMTbl 0 [1]: FFF02000, CID: B105E00D, PID: 001BB002 DWT -- CPU_ReadMem(16 bytes @ 0xE0002FF0) -- CPU_ReadMem(16 bytes @ 0xE0002FE0)ROMTbl 0 [2]: FFF03000, CID: B105E00D, PID: 000BB003 FPB -- CPU_ReadMem(16 bytes @ 0xE0000FF0) -- CPU_ReadMem(16 bytes @ 0xE0000FE0)ROMTbl 0 [3]: FFF01000, CID: B105E00D, PID: 001BB001 ITM -- CPU_ReadMem(16 bytes @ 0xE00FF010) -- CPU_ReadMem(16 bytes @ 0xE0040FF0)
 -- CPU_ReadMem(16 bytes @ 0xE0040FE0)ROMTbl 0 [4]: FFF41000, CID: B105900D, PID: 001BB923 TPIU-Lite >0x0D TIF> >0x21 TIF>  returns 0x1BA01477 (0125ms, 0275ms total)
T1D50 000:333 JLINK_GetDLLVersion()  returns 61402 (0000ms, 0275ms total)
T1D50 000:333 JLINK_CORE_GetFound()  returns 0x30000FF (0000ms, 0275ms total)
T1D50 000:333 JLINK_GetDebugInfo(0x100 = JLINKARM_ROM_TABLE_ADDR_INDEX) -- Value=0xE00FF000  returns 0x00 (0000ms, 0275ms total)
T1D50 000:341 JLINK_ReadMem (0xE00FF000, 0x0020 Bytes, ...) -- CPU is running -- CPU_ReadMem(32 bytes @ 0xE00FF000) - Data: 03 F0 F0 FF 03 20 F0 FF 03 30 F0 FF 03 10 F0 FF ...  returns 0x00 (0001ms, 0276ms total)
T1D50 000:342 JLINK_ReadMem (0xE000EFF0, 0x0010 Bytes, ...) -- CPU is running -- CPU_ReadMem(16 bytes @ 0xE000EFF0) - Data: 0D 00 00 00 E0 00 00 00 05 00 00 00 B1 00 00 00  returns 0x00 (0001ms, 0277ms total)
T1D50 000:343 JLINK_ReadMem (0xE000EFD0, 0x0020 Bytes, ...) -- CPU is running -- CPU_ReadMem(32 bytes @ 0xE000EFD0) - Data: 04 00 00 00 00 00 00 00 00 00 00 00 00 00 00 00 ...  returns 0x00 (0000ms, 0277ms total)
T1D50 000:343 JLINK_ReadMem (0xE0001FF0, 0x0010 Bytes, ...) -- CPU is running -- CPU_ReadMem(16 bytes @ 0xE0001FF0) - Data: 0D 00 00 00 E0 00 00 00 05 00 00 00 B1 00 00 00  returns 0x00 (0001ms, 0278ms total)
T1D50 000:344 JLINK_ReadMem (0xE0001FD0, 0x0020 Bytes, ...) -- CPU is running -- CPU_ReadMem(32 bytes @ 0xE0001FD0) - Data: 04 00 00 00 00 00 00 00 00 00 00 00 00 00 00 00 ...  returns 0x00 (0001ms, 0279ms total)
T1D50 000:345 JLINK_ReadMem (0xE0002FF0, 0x0010 Bytes, ...) -- CPU is running -- CPU_ReadMem(16 bytes @ 0xE0002FF0) - Data: 0D 00 00 00 E0 00 00 00 05 00 00 00 B1 00 00 00  returns 0x00 (0000ms, 0279ms total)
T1D50 000:345 JLINK_ReadMem (0xE0002FD0, 0x0020 Bytes, ...) -- CPU is running -- CPU_ReadMem(32 bytes @ 0xE0002FD0) - Data: 04 00 00 00 00 00 00 00 00 00 00 00 00 00 00 00 ...  returns 0x00 (0001ms, 0280ms total)
T1D50 000:346 JLINK_ReadMem (0xE0000FF0, 0x0010 Bytes, ...) -- CPU is running -- CPU_ReadMem(16 bytes @ 0xE0000FF0) - Data: 0D 00 00 00 E0 00 00 00 05 00 00 00 B1 00 00 00  returns 0x00 (0000ms, 0280ms total)
T1D50 000:346 JLINK_ReadMem (0xE0000FD0, 0x0020 Bytes, ...) -- CPU is running -- CPU_ReadMem(32 bytes @ 0xE0000FD0) - Data: 04 00 00 00 00 00 00 00 00 00 00 00 00 00 00 00 ...  returns 0x00 (0001ms, 0281ms total)
T1D50 000:347 JLINK_ReadMem (0xE0040FF0, 0x0010 Bytes, ...) -- CPU is running -- CPU_ReadMem(16 bytes @ 0xE0040FF0) - Data: 0D 00 00 00 90 00 00 00 05 00 00 00 B1 00 00 00  returns 0x00 (0001ms, 0282ms total)
T1D50 000:348 JLINK_ReadMem (0xE0040FD0, 0x0020 Bytes, ...) -- CPU is running -- CPU_ReadMem(32 bytes @ 0xE0040FD0) - Data: 04 00 00 00 00 00 00 00 00 00 00 00 00 00 00 00 ...  returns 0x00 (0000ms, 0282ms total)
T1D50 000:348 JLINK_ReadMemU32(0xE000ED00, 0x0001 Items, ...) -- CPU is running -- CPU_ReadMem(4 bytes @ 0xE000ED00) - Data: 31 C2 1F 41  returns 0x01 (0001ms, 0283ms total)
T1D50 000:349 JLINK_SetResetType(JLINKARM_CM3_RESET_TYPE_NORMAL)  returns JLINKARM_CM3_RESET_TYPE_NORMAL (0000ms, 0283ms total)
T1D50 000:349 JLINK_Reset() -- CPU is running -- CPU_WriteMem(4 bytes @ 0xE000EDF0) -- CPU is running -- CPU_WriteMem(4 bytes @ 0xE000EDFC) >0x35 TIF> -- CPU is running -- CPU_WriteMem(4 bytes @ 0xE000ED0C) >0x0D TIF> >0x28 TIF> -- CPU is running -- CPU_ReadMem(4 bytes @ 0xE000EDF0) -- CPU is running -- CPU_ReadMem(4 bytes @ 0xE000EDF0) -- CPU is running -- CPU_WriteMem(4 bytes @ 0xE000EDF0) -- CPU is running -- CPU_WriteMem(4 bytes @ 0xE000EDFC) -- CPU is running -- CPU_ReadMem(4 bytes @ 0xE000EDF0)
 -- CPU_WriteMem(4 bytes @ 0xE0002000) -- CPU_ReadMem(4 bytes @ 0xE000EDFC) -- CPU_ReadMem(4 bytes @ 0xE0001000) (0068ms, 0351ms total)
T1D50 000:417 JLINK_Halt()  returns 0x00 (0001ms, 0352ms total)
T1D50 000:418 JLINK_IsHalted()  returns TRUE (0000ms, 0352ms total)
T1D50 000:418 JLINK_ReadMemU32(0xE000EDF0, 0x0001 Items, ...) -- CPU_ReadMem(4 bytes @ 0xE000EDF0) - Data: 03 00 03 00  returns 0x01 (0000ms, 0352ms total)
T1D50 000:418 JLINK_WriteU32(0xE000EDF0, 0xA05F0003) -- CPU_WriteMem(4 bytes @ 0xE000EDF0)  returns 0x00 (0001ms, 0353ms total)
T1D50 000:419 JLINK_WriteU32(0xE000EDFC, 0x01000000) -- CPU_WriteMem(4 bytes @ 0xE000EDFC)  returns 0x00 (0001ms, 0354ms total)
T1D50 000:489 JLINK_GetHWStatus(...)  returns 0x00 (0000ms, 0354ms total)
T1D50 000:516 JLINK_GetNumBPUnits(Type = 0xFFFFFF00)  returns 0x06 (0000ms, 0354ms total)
T1D50 000:516 JLINK_GetNumBPUnits(Type = 0xF0)  returns 0x2000 (0000ms, 0354ms total)
T1D50 000:516 JLINK_GetNumWPUnits()  returns 0x04 (0000ms, 0354ms total)
T1D50 000:539 JLINK_GetSpeed()  returns 0x7D0 (0000ms, 0354ms total)
T1D50 000:553 JLINK_ReadMemU32(0xE000E004, 0x0001 Items, ...) -- CPU_ReadMem(4 bytes @ 0xE000E004) - Data: 01 00 00 00  returns 0x01 (0001ms, 0355ms total)
T1D50 000:554 JLINK_ReadMemU32(0xE000E004, 0x0001 Items, ...) -- CPU_ReadMem(4 bytes @ 0xE000E004) - Data: 01 00 00 00  returns 0x01 (0000ms, 0355ms total)
T1D50 000:554 JLINK_WriteMem(0xE0001000, 0x001C Bytes, ...) - Data: 01 00 00 00 00 00 00 00 00 00 00 00 00 00 00 00 ... -- CPU_WriteMem(28 bytes @ 0xE0001000)  returns 0x1C (0002ms, 0357ms total)
T1D50 000:556 JLINK_ReadMem (0xE0001000, 0x001C Bytes, ...) -- CPU_ReadMem(28 bytes @ 0xE0001000) - Data: 01 00 00 40 00 00 00 00 00 00 00 00 00 00 00 00 ...  returns 0x00 (0000ms, 0357ms total)
T1D50 000:556 JLINK_Halt()  returns 0x00 (0000ms, 0357ms total)
T1D50 000:556 JLINK_IsHalted()  returns TRUE (0000ms, 0357ms total)
T1D50 000:560 JLINK_WriteMem(0x20000000, 0x0164 Bytes, ...) - Data: 00 BE 0A E0 0D 78 2D 06 68 40 08 24 40 00 00 D3 ... -- CPU_WriteMem(356 bytes @ 0x20000000)  returns 0x164 (0003ms, 0360ms total)
T1D50 000:563 JLINK_WriteReg(R0, 0x08000000)  returns 0x00 (0000ms, 0360ms total)
T1D50 000:563 JLINK_WriteReg(R1, 0x00B71B00)  returns 0x00 (0000ms, 0360ms total)
T1D50 000:563 JLINK_WriteReg(R2, 0x00000001)  returns 0x00 (0000ms, 0360ms total)
T1D50 000:563 JLINK_WriteReg(R3, 0x00000000)  returns 0x00 (0000ms, 0360ms total)
T1D50 000:563 JLINK_WriteReg(R4, 0x00000000)  returns 0x00 (0000ms, 0360ms total)
T1D50 000:563 JLINK_WriteReg(R5, 0x00000000)  returns 0x00 (0000ms, 0360ms total)
T1D50 000:563 JLINK_WriteReg(R6, 0x00000000)  returns 0x00 (0001ms, 0361ms total)
T1D50 000:564 JLINK_WriteReg(R7, 0x00000000)  returns 0x00 (0000ms, 0361ms total)
T1D50 000:564 JLINK_WriteReg(R8, 0x00000000)  returns 0x00 (0000ms, 0361ms total)
T1D50 000:564 JLINK_WriteReg(R9, 0x20000160)  returns 0x00 (0000ms, 0361ms total)
T1D50 000:564 JLINK_WriteReg(R10, 0x00000000)  returns 0x00 (0000ms, 0361ms total)
T1D50 000:564 JLINK_WriteReg(R11, 0x00000000)  returns 0x00 (0000ms, 0361ms total)
T1D50 000:564 JLINK_WriteReg(R12, 0x00000000)  returns 0x00 (0000ms, 0361ms total)
T1D50 000:564 JLINK_WriteReg(R13 (SP), 0x20000800)  returns 0x00 (0000ms, 0361ms total)
T1D50 000:564 JLINK_WriteReg(R14, 0x20000001)  returns 0x00 (0000ms, 0361ms total)
T1D50 000:564 JLINK_WriteReg(R15 (PC), 0x20000038)  returns 0x00 (0000ms, 0361ms total)
T1D50 000:564 JLINK_WriteReg(XPSR, 0x01000000)  returns 0x00 (0000ms, 0361ms total)
T1D50 000:564 JLINK_WriteReg(MSP, 0x20000800)  returns 0x00 (0000ms, 0361ms total)
T1D50 000:564 JLINK_WriteReg(PSP, 0x20000800)  returns 0x00 (0000ms, 0361ms total)
T1D50 000:564 JLINK_WriteReg(CFBP, 0x00000000)  returns 0x00 (0000ms, 0361ms total)
T1D50 000:564 JLINK_SetBPEx(Addr = 0x20000000, Type = 0xFFFFFFF2) -- CPU_ReadMem(2 bytes @ 0x20000000)  returns 0x00000001 (0000ms, 0361ms total)
T1D50 000:564 JLINK_Go() -- CPU_WriteMem(2 bytes @ 0x20000000) -- CPU_ReadMem(4 bytes @ 0xE0001000) -- CPU_WriteMem(4 bytes @ 0xE0002008) -- CPU_WriteMem(4 bytes @ 0xE000200C) -- CPU_WriteMem(4 bytes @ 0xE0002010) -- CPU_WriteMem(4 bytes @ 0xE0002014) -- CPU_WriteMem(4 bytes @ 0xE0002018) -- CPU_WriteMem(4 bytes @ 0xE000201C) -- CPU_WriteMem(4 bytes @ 0xE0001004) (0006ms, 0367ms total)
T1D50 000:570 JLINK_IsHalted() -- CPU_ReadMem(2 bytes @ 0x20000000)  returns TRUE (0004ms, 0371ms total)
T1D50 000:574 JLINK_ReadReg(R15 (PC))  returns 0x20000000 (0000ms, 0367ms total)
T1D50 000:574 JLINK_ClrBPEx(BPHandle = 0x00000001)  returns 0x00 (0000ms, 0367ms total)
T1D50 000:574 JLINK_ReadReg(R0)  returns 0x00000000 (0000ms, 0367ms total)
T1D50 000:574 JLINK_WriteReg(R0, 0x08000000)  returns 0x00 (0000ms, 0367ms total)
T1D50 000:575 JLINK_WriteReg(R1, 0x00B71B00)  returns 0x00 (0000ms, 0368ms total)
T1D50 000:575 JLINK_WriteReg(R2, 0x00000001)  returns 0x00 (0000ms, 0368ms total)
T1D50 000:575 JLINK_WriteReg(R3, 0x00000000)  returns 0x00 (0000ms, 0368ms total)
T1D50 000:575 JLINK_WriteReg(R4, 0x00000000)  returns 0x00 (0000ms, 0368ms total)
T1D50 000:575 JLINK_WriteReg(R5, 0x00000000)  returns 0x00 (0000ms, 0368ms total)
T1D50 000:575 JLINK_WriteReg(R6, 0x00000000)  returns 0x00 (0000ms, 0368ms total)
T1D50 000:575 JLINK_WriteReg(R7, 0x00000000)  returns 0x00 (0000ms, 0368ms total)
T1D50 000:575 JLINK_WriteReg(R8, 0x00000000)  returns 0x00 (0000ms, 0368ms total)
T1D50 000:575 JLINK_WriteReg(R9, 0x20000160)  returns 0x00 (0000ms, 0368ms total)
T1D50 000:575 JLINK_WriteReg(R10, 0x00000000)  returns 0x00 (0000ms, 0368ms total)
T1D50 000:575 JLINK_WriteReg(R11, 0x00000000)  returns 0x00 (0000ms, 0368ms total)
T1D50 000:575 JLINK_WriteReg(R12, 0x00000000)  returns 0x00 (0000ms, 0368ms total)
T1D50 000:575 JLINK_WriteReg(R13 (SP), 0x20000800)  returns 0x00 (0000ms, 0368ms total)
T1D50 000:575 JLINK_WriteReg(R14, 0x20000001)  returns 0x00 (0000ms, 0368ms total)
T1D50 000:575 JLINK_WriteReg(R15 (PC), 0x2000007C)  returns 0x00 (0000ms, 0368ms total)
T1D50 000:575 JLINK_WriteReg(XPSR, 0x01000000)  returns 0x00 (0000ms, 0368ms total)
T1D50 000:575 JLINK_WriteReg(MSP, 0x20000800)  returns 0x00 (0000ms, 0368ms total)
T1D50 000:575 JLINK_WriteReg(PSP, 0x20000800)  returns 0x00 (0000ms, 0368ms total)
T1D50 000:575 JLINK_WriteReg(CFBP, 0x00000000)  returns 0x00 (0000ms, 0368ms total)
T1D50 000:575 JLINK_SetBPEx(Addr = 0x20000000, Type = 0xFFFFFFF2)  returns 0x00000002 (0000ms, 0368ms total)
T1D50 000:575 JLINK_Go() -- CPU_ReadMem(4 bytes @ 0xE0001000) (0002ms, 0370ms total)
T1D50 000:577 JLINK_IsHalted()  returns FALSE (0001ms, 0371ms total)
T1D50 000:660 JLINK_IsHalted() -- CPU_ReadMem(2 bytes @ 0x20000000)  returns TRUE (0004ms, 0374ms total)
T1D50 000:664 JLINK_ReadReg(R15 (PC))  returns 0x20000000 (0000ms, 0370ms total)
T1D50 000:664 JLINK_ClrBPEx(BPHandle = 0x00000002)  returns 0x00 (0000ms, 0370ms total)
T1D50 000:664 JLINK_ReadReg(R0)  returns 0x00000000 (0000ms, 0370ms total)
T1D50 000:716 JLINK_WriteReg(R0, 0x00000001)  returns 0x00 (0000ms, 0370ms total)
T1D50 000:716 JLINK_WriteReg(R1, 0x00B71B00)  returns 0x00 (0000ms, 0370ms total)
T1D50 000:716 JLINK_WriteReg(R2, 0x00000001)  returns 0x00 (0000ms, 0370ms total)
T1D50 000:716 JLINK_WriteReg(R3, 0x00000000)  returns 0x00 (0000ms, 0370ms total)
T1D50 000:716 JLINK_WriteReg(R4, 0x00000000)  returns 0x00 (0000ms, 0370ms total)
T1D50 000:716 JLINK_WriteReg(R5, 0x00000000)  returns 0x00 (0000ms, 0370ms total)
T1D50 000:716 JLINK_WriteReg(R6, 0x00000000)  returns 0x00 (0000ms, 0370ms total)
T1D50 000:716 JLINK_WriteReg(R7, 0x00000000)  returns 0x00 (0000ms, 0370ms total)
T1D50 000:716 JLINK_WriteReg(R8, 0x00000000)  returns 0x00 (0000ms, 0370ms total)
T1D50 000:716 JLINK_WriteReg(R9, 0x20000160)  returns 0x00 (0000ms, 0370ms total)
T1D50 000:716 JLINK_WriteReg(R10, 0x00000000)  returns 0x00 (0000ms, 0370ms total)
T1D50 000:716 JLINK_WriteReg(R11, 0x00000000)  returns 0x00 (0000ms, 0370ms total)
T1D50 000:716 JLINK_WriteReg(R12, 0x00000000)  returns 0x00 (0000ms, 0370ms total)
T1D50 000:716 JLINK_WriteReg(R13 (SP), 0x20000800)  returns 0x00 (0000ms, 0370ms total)
T1D50 000:716 JLINK_WriteReg(R14, 0x20000001)  returns 0x00 (0001ms, 0371ms total)
T1D50 000:717 JLINK_WriteReg(R15 (PC), 0x2000006A)  returns 0x00 (0000ms, 0371ms total)
T1D50 000:717 JLINK_WriteReg(XPSR, 0x01000000)  returns 0x00 (0000ms, 0371ms total)
T1D50 000:717 JLINK_WriteReg(MSP, 0x20000800)  returns 0x00 (0000ms, 0371ms total)
T1D50 000:717 JLINK_WriteReg(PSP, 0x20000800)  returns 0x00 (0000ms, 0371ms total)
T1D50 000:717 JLINK_WriteReg(CFBP, 0x00000000)  returns 0x00 (0000ms, 0371ms total)
T1D50 000:717 JLINK_SetBPEx(Addr = 0x20000000, Type = 0xFFFFFFF2)  returns 0x00000003 (0000ms, 0371ms total)
T1D50 000:717 JLINK_Go() -- CPU_ReadMem(4 bytes @ 0xE0001000) (0002ms, 0373ms total)
T1D50 000:719 JLINK_IsHalted() -- CPU_ReadMem(2 bytes @ 0x20000000)  returns TRUE (0004ms, 0377ms total)
T1D50 000:723 JLINK_ReadReg(R15 (PC))  returns 0x20000000 (0000ms, 0373ms total)
T1D50 000:723 JLINK_ClrBPEx(BPHandle = 0x00000003)  returns 0x00 (0000ms, 0373ms total)
T1D50 000:723 JLINK_ReadReg(R0)  returns 0x00000000 (0000ms, 0373ms total)
T1D50 000:734 JLINK_WriteMem(0x20000000, 0x0164 Bytes, ...) - Data: 00 BE 0A E0 0D 78 2D 06 68 40 08 24 40 00 00 D3 ... -- CPU_WriteMem(356 bytes @ 0x20000000)  returns 0x164 (0003ms, 0376ms total)
T1D50 000:737 JLINK_WriteReg(R0, 0x08000000)  returns 0x00 (0000ms, 0376ms total)
T1D50 000:737 JLINK_WriteReg(R1, 0x00B71B00)  returns 0x00 (0000ms, 0376ms total)
T1D50 000:737 JLINK_WriteReg(R2, 0x00000002)  returns 0x00 (0000ms, 0376ms total)
T1D50 000:737 JLINK_WriteReg(R3, 0x00000000)  returns 0x00 (0000ms, 0376ms total)
T1D50 000:737 JLINK_WriteReg(R4, 0x00000000)  returns 0x00 (0000ms, 0376ms total)
T1D50 000:737 JLINK_WriteReg(R5, 0x00000000)  returns 0x00 (0000ms, 0376ms total)
T1D50 000:737 JLINK_WriteReg(R6, 0x00000000)  returns 0x00 (0000ms, 0376ms total)
T1D50 000:737 JLINK_WriteReg(R7, 0x00000000)  returns 0x00 (0000ms, 0376ms total)
T1D50 000:737 JLINK_WriteReg(R8, 0x00000000)  returns 0x00 (0000ms, 0376ms total)
T1D50 000:737 JLINK_WriteReg(R9, 0x20000160)  returns 0x00 (0000ms, 0376ms total)
T1D50 000:737 JLINK_WriteReg(R10, 0x00000000)  returns 0x00 (0001ms, 0377ms total)
T1D50 000:738 JLINK_WriteReg(R11, 0x00000000)  returns 0x00 (0000ms, 0377ms total)
T1D50 000:738 JLINK_WriteReg(R12, 0x00000000)  returns 0x00 (0000ms, 0377ms total)
T1D50 000:738 JLINK_WriteReg(R13 (SP), 0x20000800)  returns 0x00 (0000ms, 0377ms total)
T1D50 000:738 JLINK_WriteReg(R14, 0x20000001)  returns 0x00 (0000ms, 0377ms total)
T1D50 000:738 JLINK_WriteReg(R15 (PC), 0x20000038)  returns 0x00 (0000ms, 0377ms total)
T1D50 000:738 JLINK_WriteReg(XPSR, 0x01000000)  returns 0x00 (0000ms, 0377ms total)
T1D50 000:738 JLINK_WriteReg(MSP, 0x20000800)  returns 0x00 (0000ms, 0377ms total)
T1D50 000:738 JLINK_WriteReg(PSP, 0x20000800)  returns 0x00 (0000ms, 0377ms total)
T1D50 000:738 JLINK_WriteReg(CFBP, 0x00000000)  returns 0x00 (0000ms, 0377ms total)
T1D50 000:738 JLINK_SetBPEx(Addr = 0x20000000, Type = 0xFFFFFFF2) -- CPU_ReadMem(2 bytes @ 0x20000000)  returns 0x00000004 (0000ms, 0377ms total)
T1D50 000:738 JLINK_Go() -- CPU_WriteMem(2 bytes @ 0x20000000) -- CPU_ReadMem(4 bytes @ 0xE0001000) (0003ms, 0380ms total)
T1D50 000:741 JLINK_IsHalted() -- CPU_ReadMem(2 bytes @ 0x20000000)  returns TRUE (0004ms, 0384ms total)
T1D50 000:745 JLINK_ReadReg(R15 (PC))  returns 0x20000000 (0000ms, 0380ms total)
T1D50 000:745 JLINK_ClrBPEx(BPHandle = 0x00000004)  returns 0x00 (0000ms, 0380ms total)
T1D50 000:745 JLINK_ReadReg(R0)  returns 0x00000000 (0000ms, 0380ms total)
T1D50 000:745 JLINK_WriteMem(0x20000164, 0x0400 Bytes, ...) - Data: 88 20 00 20 C9 17 00 08 71 06 00 08 73 06 00 08 ... -- CPU_WriteMem(1024 bytes @ 0x20000164)  returns 0x400 (0008ms, 0388ms total)
T1D50 000:753 JLINK_WriteReg(R0, 0x08000000)  returns 0x00 (0000ms, 0388ms total)
T1D50 000:753 JLINK_WriteReg(R1, 0x00000400)  returns 0x00 (0000ms, 0388ms total)
T1D50 000:753 JLINK_WriteReg(R2, 0x20000164)  returns 0x00 (0000ms, 0388ms total)
T1D50 000:753 JLINK_WriteReg(R3, 0x00000000)  returns 0x00 (0000ms, 0388ms total)
T1D50 000:753 JLINK_WriteReg(R4, 0x00000000)  returns 0x00 (0000ms, 0388ms total)
T1D50 000:753 JLINK_WriteReg(R5, 0x00000000)  returns 0x00 (0000ms, 0388ms total)
T1D50 000:753 JLINK_WriteReg(R6, 0x00000000)  returns 0x00 (0000ms, 0388ms total)
T1D50 000:753 JLINK_WriteReg(R7, 0x00000000)  returns 0x00 (0000ms, 0388ms total)
T1D50 000:753 JLINK_WriteReg(R8, 0x00000000)  returns 0x00 (0000ms, 0388ms total)
T1D50 000:754 JLINK_WriteReg(R9, 0x20000160)  returns 0x00 (0000ms, 0389ms total)
T1D50 000:754 JLINK_WriteReg(R10, 0x00000000)  returns 0x00 (0000ms, 0389ms total)
T1D50 000:754 JLINK_WriteReg(R11, 0x00000000)  returns 0x00 (0000ms, 0389ms total)
T1D50 000:754 JLINK_WriteReg(R12, 0x00000000)  returns 0x00 (0000ms, 0389ms total)
T1D50 000:754 JLINK_WriteReg(R13 (SP), 0x20000800)  returns 0x00 (0000ms, 0389ms total)
T1D50 000:754 JLINK_WriteReg(R14, 0x20000001)  returns 0x00 (0000ms, 0389ms total)
T1D50 000:754 JLINK_WriteReg(R15 (PC), 0x200000F4)  returns 0x00 (0000ms, 0389ms total)
T1D50 000:754 JLINK_WriteReg(XPSR, 0x01000000)  returns 0x00 (0000ms, 0389ms total)
T1D50 000:754 JLINK_WriteReg(MSP, 0x20000800)  returns 0x00 (0000ms, 0389ms total)
T1D50 000:754 JLINK_WriteReg(PSP, 0x20000800)  returns 0x00 (0000ms, 0389ms total)
T1D50 000:754 JLINK_WriteReg(CFBP, 0x00000000)  returns 0x00 (0000ms, 0389ms total)
T1D50 000:754 JLINK_SetBPEx(Addr = 0x20000000, Type = 0xFFFFFFF2)  returns 0x00000005 (0000ms, 0389ms total)
T1D50 000:754 JLINK_Go() -- CPU_ReadMem(4 bytes @ 0xE0001000) (0002ms, 0391ms total)
T1D50 000:756 JLINK_IsHalted()  returns FALSE (0001ms, 0392ms total)
T1D50 000:788 JLINK_IsHalted() -- CPU_ReadMem(2 bytes @ 0x20000000)  returns TRUE (0004ms, 0395ms total)
T1D50 000:792 JLINK_ReadReg(R15 (PC))  returns 0x20000000 (0000ms, 0391ms total)
T1D50 000:792 JLINK_ClrBPEx(BPHandle = 0x00000005)  returns 0x00 (0000ms, 0391ms total)
T1D50 000:792 JLINK_ReadReg(R0)  returns 0x00000000 (0000ms, 0391ms total)
T1D50 000:793 JLINK_WriteMem(0x20000164, 0x0400 Bytes, ...) - Data: F9 DC E8 E7 10 B5 91 48 00 78 8F 49 09 78 88 42 ... -- CPU_WriteMem(1024 bytes @ 0x20000164)  returns 0x400 (0008ms, 0399ms total)
T1D50 000:801 JLINK_WriteReg(R0, 0x08000400)  returns 0x00 (0000ms, 0399ms total)
T1D50 000:801 JLINK_WriteReg(R1, 0x00000400)  returns 0x00 (0000ms, 0399ms total)
T1D50 000:801 JLINK_WriteReg(R2, 0x20000164)  returns 0x00 (0000ms, 0399ms total)
T1D50 000:801 JLINK_WriteReg(R3, 0x00000000)  returns 0x00 (0000ms, 0399ms total)
T1D50 000:801 JLINK_WriteReg(R4, 0x00000000)  returns 0x00 (0000ms, 0399ms total)
T1D50 000:801 JLINK_WriteReg(R5, 0x00000000)  returns 0x00 (0000ms, 0399ms total)
T1D50 000:801 JLINK_WriteReg(R6, 0x00000000)  returns 0x00 (0000ms, 0399ms total)
T1D50 000:801 JLINK_WriteReg(R7, 0x00000000)  returns 0x00 (0000ms, 0399ms total)
T1D50 000:801 JLINK_WriteReg(R8, 0x00000000)  returns 0x00 (0000ms, 0399ms total)
T1D50 000:801 JLINK_WriteReg(R9, 0x20000160)  returns 0x00 (0000ms, 0399ms total)
T1D50 000:801 JLINK_WriteReg(R10, 0x00000000)  returns 0x00 (0000ms, 0399ms total)
T1D50 000:801 JLINK_WriteReg(R11, 0x00000000)  returns 0x00 (0000ms, 0399ms total)
T1D50 000:801 JLINK_WriteReg(R12, 0x00000000)  returns 0x00 (0000ms, 0399ms total)
T1D50 000:801 JLINK_WriteReg(R13 (SP), 0x20000800)  returns 0x00 (0000ms, 0399ms total)
T1D50 000:801 JLINK_WriteReg(R14, 0x20000001)  returns 0x00 (0000ms, 0399ms total)
T1D50 000:801 JLINK_WriteReg(R15 (PC), 0x200000F4)  returns 0x00 (0000ms, 0399ms total)
T1D50 000:801 JLINK_WriteReg(XPSR, 0x01000000)  returns 0x00 (0000ms, 0399ms total)
T1D50 000:801 JLINK_WriteReg(MSP, 0x20000800)  returns 0x00 (0000ms, 0399ms total)
T1D50 000:801 JLINK_WriteReg(PSP, 0x20000800)  returns 0x00 (0000ms, 0399ms total)
T1D50 000:801 JLINK_WriteReg(CFBP, 0x00000000)  returns 0x00 (0000ms, 0399ms total)
T1D50 000:801 JLINK_SetBPEx(Addr = 0x20000000, Type = 0xFFFFFFF2)  returns 0x00000006 (0000ms, 0399ms total)
T1D50 000:801 JLINK_Go() -- CPU_ReadMem(4 bytes @ 0xE0001000) (0003ms, 0402ms total)
T1D50 000:804 JLINK_IsHalted()  returns FALSE (0000ms, 0402ms total)
T1D50 000:806 JLINK_IsHalted()  returns FALSE (0000ms, 0402ms total)
T1D50 000:808 JLINK_IsHalted()  returns FALSE (0000ms, 0402ms total)
T1D50 000:810 JLINK_IsHalted()  returns FALSE (0000ms, 0402ms total)
T1D50 000:812 JLINK_IsHalted()  returns FALSE (0000ms, 0402ms total)
T1D50 000:814 JLINK_IsHalted()  returns FALSE (0000ms, 0402ms total)
T1D50 000:816 JLINK_IsHalted()  returns FALSE (0000ms, 0402ms total)
T1D50 000:818 JLINK_IsHalted()  returns FALSE (0000ms, 0402ms total)
T1D50 000:820 JLINK_IsHalted()  returns FALSE (0000ms, 0402ms total)
T1D50 000:822 JLINK_IsHalted()  returns FALSE (0000ms, 0402ms total)
T1D50 000:824 JLINK_IsHalted()  returns FALSE (0000ms, 0402ms total)
T1D50 000:826 JLINK_IsHalted()  returns FALSE (0000ms, 0402ms total)
T1D50 000:828 JLINK_IsHalted()  returns FALSE (0000ms, 0402ms total)
T1D50 000:830 JLINK_IsHalted()  returns FALSE (0000ms, 0402ms total)
T1D50 000:832 JLINK_IsHalted()  returns FALSE (0000ms, 0402ms total)
T1D50 000:834 JLINK_IsHalted()  returns FALSE (0000ms, 0402ms total)
T1D50 000:836 JLINK_IsHalted() -- CPU_ReadMem(2 bytes @ 0x20000000)  returns TRUE (0004ms, 0406ms total)
T1D50 000:840 JLINK_ReadReg(R15 (PC))  returns 0x20000000 (0000ms, 0402ms total)
T1D50 000:840 JLINK_ClrBPEx(BPHandle = 0x00000006)  returns 0x00 (0000ms, 0402ms total)
T1D50 000:840 JLINK_ReadReg(R0)  returns 0x00000000 (0000ms, 0402ms total)
T1D50 000:841 JLINK_WriteMem(0x20000164, 0x0400 Bytes, ...) - Data: 17 4C 23 60 0D E0 10 4B 5B 68 03 F4 00 33 23 B1 ... -- CPU_WriteMem(1024 bytes @ 0x20000164)  returns 0x400 (0007ms, 0409ms total)
T1D50 000:848 JLINK_WriteReg(R0, 0x08000800)  returns 0x00 (0000ms, 0409ms total)
T1D50 000:848 JLINK_WriteReg(R1, 0x00000400)  returns 0x00 (0000ms, 0409ms total)
T1D50 000:848 JLINK_WriteReg(R2, 0x20000164)  returns 0x00 (0001ms, 0410ms total)
T1D50 000:849 JLINK_WriteReg(R3, 0x00000000)  returns 0x00 (0000ms, 0410ms total)
T1D50 000:849 JLINK_WriteReg(R4, 0x00000000)  returns 0x00 (0000ms, 0410ms total)
T1D50 000:849 JLINK_WriteReg(R5, 0x00000000)  returns 0x00 (0000ms, 0410ms total)
T1D50 000:849 JLINK_WriteReg(R6, 0x00000000)  returns 0x00 (0000ms, 0410ms total)
T1D50 000:849 JLINK_WriteReg(R7, 0x00000000)  returns 0x00 (0000ms, 0410ms total)
T1D50 000:849 JLINK_WriteReg(R8, 0x00000000)  returns 0x00 (0000ms, 0410ms total)
T1D50 000:849 JLINK_WriteReg(R9, 0x20000160)  returns 0x00 (0000ms, 0410ms total)
T1D50 000:849 JLINK_WriteReg(R10, 0x00000000)  returns 0x00 (0000ms, 0410ms total)
T1D50 000:849 JLINK_WriteReg(R11, 0x00000000)  returns 0x00 (0000ms, 0410ms total)
T1D50 000:849 JLINK_WriteReg(R12, 0x00000000)  returns 0x00 (0000ms, 0410ms total)
T1D50 000:849 JLINK_WriteReg(R13 (SP), 0x20000800)  returns 0x00 (0000ms, 0410ms total)
T1D50 000:849 JLINK_WriteReg(R14, 0x20000001)  returns 0x00 (0000ms, 0410ms total)
T1D50 000:849 JLINK_WriteReg(R15 (PC), 0x200000F4)  returns 0x00 (0000ms, 0410ms total)
T1D50 000:849 JLINK_WriteReg(XPSR, 0x01000000)  returns 0x00 (0000ms, 0410ms total)
T1D50 000:849 JLINK_WriteReg(MSP, 0x20000800)  returns 0x00 (0000ms, 0410ms total)
T1D50 000:849 JLINK_WriteReg(PSP, 0x20000800)  returns 0x00 (0000ms, 0410ms total)
T1D50 000:849 JLINK_WriteReg(CFBP, 0x00000000)  returns 0x00 (0000ms, 0410ms total)
T1D50 000:849 JLINK_SetBPEx(Addr = 0x20000000, Type = 0xFFFFFFF2)  returns 0x00000007 (0000ms, 0410ms total)
T1D50 000:849 JLINK_Go() -- CPU_ReadMem(4 bytes @ 0xE0001000) (0003ms, 0413ms total)
T1D50 000:852 JLINK_IsHalted()  returns FALSE (0000ms, 0413ms total)
T1D50 000:881 JLINK_IsHalted()  returns FALSE (0000ms, 0413ms total)
T1D50 000:883 JLINK_IsHalted() -- CPU_ReadMem(2 bytes @ 0x20000000)  returns TRUE (0004ms, 0417ms total)
T1D50 000:887 JLINK_ReadReg(R15 (PC))  returns 0x20000000 (0000ms, 0413ms total)
T1D50 000:887 JLINK_ClrBPEx(BPHandle = 0x00000007)  returns 0x00 (0000ms, 0413ms total)
T1D50 000:887 JLINK_ReadReg(R0)  returns 0x00000000 (0000ms, 0413ms total)
T1D50 000:888 JLINK_WriteMem(0x20000164, 0x0400 Bytes, ...) - Data: 12 00 07 20 AD F8 14 00 01 A9 0F 48 02 F0 22 FB ... -- CPU_WriteMem(1024 bytes @ 0x20000164)  returns 0x400 (0008ms, 0421ms total)
T1D50 000:896 JLINK_WriteReg(R0, 0x08000C00)  returns 0x00 (0000ms, 0421ms total)
T1D50 000:896 JLINK_WriteReg(R1, 0x00000400)  returns 0x00 (0000ms, 0421ms total)
T1D50 000:896 JLINK_WriteReg(R2, 0x20000164)  returns 0x00 (0000ms, 0421ms total)
T1D50 000:896 JLINK_WriteReg(R3, 0x00000000)  returns 0x00 (0000ms, 0421ms total)
T1D50 000:896 JLINK_WriteReg(R4, 0x00000000)  returns 0x00 (0000ms, 0421ms total)
T1D50 000:896 JLINK_WriteReg(R5, 0x00000000)  returns 0x00 (0000ms, 0421ms total)
T1D50 000:896 JLINK_WriteReg(R6, 0x00000000)  returns 0x00 (0000ms, 0421ms total)
T1D50 000:896 JLINK_WriteReg(R7, 0x00000000)  returns 0x00 (0000ms, 0421ms total)
T1D50 000:896 JLINK_WriteReg(R8, 0x00000000)  returns 0x00 (0000ms, 0421ms total)
T1D50 000:896 JLINK_WriteReg(R9, 0x20000160)  returns 0x00 (0000ms, 0421ms total)
T1D50 000:896 JLINK_WriteReg(R10, 0x00000000)  returns 0x00 (0000ms, 0421ms total)
T1D50 000:896 JLINK_WriteReg(R11, 0x00000000)  returns 0x00 (0000ms, 0421ms total)
T1D50 000:896 JLINK_WriteReg(R12, 0x00000000)  returns 0x00 (0000ms, 0421ms total)
T1D50 000:896 JLINK_WriteReg(R13 (SP), 0x20000800)  returns 0x00 (0000ms, 0421ms total)
T1D50 000:896 JLINK_WriteReg(R14, 0x20000001)  returns 0x00 (0000ms, 0421ms total)
T1D50 000:896 JLINK_WriteReg(R15 (PC), 0x200000F4)  returns 0x00 (0000ms, 0421ms total)
T1D50 000:896 JLINK_WriteReg(XPSR, 0x01000000)  returns 0x00 (0000ms, 0421ms total)
T1D50 000:896 JLINK_WriteReg(MSP, 0x20000800)  returns 0x00 (0000ms, 0421ms total)
T1D50 000:896 JLINK_WriteReg(PSP, 0x20000800)  returns 0x00 (0000ms, 0421ms total)
T1D50 000:896 JLINK_WriteReg(CFBP, 0x00000000)  returns 0x00 (0000ms, 0421ms total)
T1D50 000:896 JLINK_SetBPEx(Addr = 0x20000000, Type = 0xFFFFFFF2)  returns 0x00000008 (0000ms, 0421ms total)
T1D50 000:896 JLINK_Go() -- CPU_ReadMem(4 bytes @ 0xE0001000) (0003ms, 0424ms total)
T1D50 000:899 JLINK_IsHalted()  returns FALSE (0000ms, 0424ms total)
T1D50 000:901 JLINK_IsHalted()  returns FALSE (0000ms, 0424ms total)
T1D50 000:903 JLINK_IsHalted()  returns FALSE (0000ms, 0424ms total)
T1D50 000:905 JLINK_IsHalted()  returns FALSE (0000ms, 0424ms total)
T1D50 000:907 JLINK_IsHalted()  returns FALSE (0000ms, 0424ms total)
T1D50 000:909 JLINK_IsHalted()  returns FALSE (0000ms, 0424ms total)
T1D50 000:913 JLINK_IsHalted()  returns FALSE (0000ms, 0424ms total)
T1D50 000:915 JLINK_IsHalted()  returns FALSE (0000ms, 0424ms total)
T1D50 000:917 JLINK_IsHalted()  returns FALSE (0000ms, 0424ms total)
T1D50 000:919 JLINK_IsHalted()  returns FALSE (0000ms, 0424ms total)
T1D50 000:921 JLINK_IsHalted()  returns FALSE (0000ms, 0424ms total)
T1D50 000:923 JLINK_IsHalted()  returns FALSE (0000ms, 0424ms total)
T1D50 000:925 JLINK_IsHalted()  returns FALSE (0000ms, 0424ms total)
T1D50 000:927 JLINK_IsHalted()  returns FALSE (0000ms, 0424ms total)
T1D50 000:929 JLINK_IsHalted()  returns FALSE (0000ms, 0424ms total)
T1D50 000:931 JLINK_IsHalted() -- CPU_ReadMem(2 bytes @ 0x20000000)  returns TRUE (0004ms, 0428ms total)
T1D50 000:935 JLINK_ReadReg(R15 (PC))  returns 0x20000000 (0000ms, 0424ms total)
T1D50 000:935 JLINK_ClrBPEx(BPHandle = 0x00000008)  returns 0x00 (0000ms, 0424ms total)
T1D50 000:935 JLINK_ReadReg(R0)  returns 0x00000000 (0000ms, 0424ms total)
T1D50 000:936 JLINK_WriteMem(0x20000164, 0x0400 Bytes, ...) - Data: FF F7 1B FF 21 78 88 42 01 D1 00 20 67 E7 01 20 ... -- CPU_WriteMem(1024 bytes @ 0x20000164)  returns 0x400 (0008ms, 0432ms total)
T1D50 000:944 JLINK_WriteReg(R0, 0x08001000)  returns 0x00 (0000ms, 0432ms total)
T1D50 000:944 JLINK_WriteReg(R1, 0x00000400)  returns 0x00 (0000ms, 0432ms total)
T1D50 000:944 JLINK_WriteReg(R2, 0x20000164)  returns 0x00 (0000ms, 0432ms total)
T1D50 000:944 JLINK_WriteReg(R3, 0x00000000)  returns 0x00 (0000ms, 0432ms total)
T1D50 000:944 JLINK_WriteReg(R4, 0x00000000)  returns 0x00 (0000ms, 0432ms total)
T1D50 000:944 JLINK_WriteReg(R5, 0x00000000)  returns 0x00 (0000ms, 0432ms total)
T1D50 000:944 JLINK_WriteReg(R6, 0x00000000)  returns 0x00 (0000ms, 0432ms total)
T1D50 000:944 JLINK_WriteReg(R7, 0x00000000)  returns 0x00 (0000ms, 0432ms total)
T1D50 000:944 JLINK_WriteReg(R8, 0x00000000)  returns 0x00 (0000ms, 0432ms total)
T1D50 000:944 JLINK_WriteReg(R9, 0x20000160)  returns 0x00 (0000ms, 0432ms total)
T1D50 000:944 JLINK_WriteReg(R10, 0x00000000)  returns 0x00 (0000ms, 0432ms total)
T1D50 000:944 JLINK_WriteReg(R11, 0x00000000)  returns 0x00 (0000ms, 0432ms total)
T1D50 000:944 JLINK_WriteReg(R12, 0x00000000)  returns 0x00 (0000ms, 0432ms total)
T1D50 000:944 JLINK_WriteReg(R13 (SP), 0x20000800)  returns 0x00 (0000ms, 0432ms total)
T1D50 000:944 JLINK_WriteReg(R14, 0x20000001)  returns 0x00 (0000ms, 0432ms total)
T1D50 000:944 JLINK_WriteReg(R15 (PC), 0x200000F4)  returns 0x00 (0000ms, 0432ms total)
T1D50 000:944 JLINK_WriteReg(XPSR, 0x01000000)  returns 0x00 (0000ms, 0432ms total)
T1D50 000:944 JLINK_WriteReg(MSP, 0x20000800)  returns 0x00 (0000ms, 0432ms total)
T1D50 000:944 JLINK_WriteReg(PSP, 0x20000800)  returns 0x00 (0001ms, 0433ms total)
T1D50 000:945 JLINK_WriteReg(CFBP, 0x00000000)  returns 0x00 (0000ms, 0433ms total)
T1D50 000:945 JLINK_SetBPEx(Addr = 0x20000000, Type = 0xFFFFFFF2)  returns 0x00000009 (0000ms, 0433ms total)
T1D50 000:945 JLINK_Go() -- CPU_ReadMem(4 bytes @ 0xE0001000) (0002ms, 0435ms total)
T1D50 000:947 JLINK_IsHalted()  returns FALSE (0000ms, 0435ms total)
T1D50 000:949 JLINK_IsHalted()  returns FALSE (0000ms, 0435ms total)
T1D50 000:951 JLINK_IsHalted()  returns FALSE (0000ms, 0435ms total)
T1D50 000:953 JLINK_IsHalted()  returns FALSE (0000ms, 0435ms total)
T1D50 000:955 JLINK_IsHalted()  returns FALSE (0000ms, 0435ms total)
T1D50 000:957 JLINK_IsHalted()  returns FALSE (0000ms, 0435ms total)
T1D50 000:983 JLINK_IsHalted() -- CPU_ReadMem(2 bytes @ 0x20000000)  returns TRUE (0004ms, 0439ms total)
T1D50 000:987 JLINK_ReadReg(R15 (PC))  returns 0x20000000 (0000ms, 0435ms total)
T1D50 000:987 JLINK_ClrBPEx(BPHandle = 0x00000009)  returns 0x00 (0000ms, 0435ms total)
T1D50 000:987 JLINK_ReadReg(R0)  returns 0x00000000 (0000ms, 0435ms total)
T1D50 000:988 JLINK_WriteMem(0x20000164, 0x0400 Bytes, ...) - Data: C5 00 00 20 00 00 00 20 68 00 00 20 03 00 00 20 ... -- CPU_WriteMem(1024 bytes @ 0x20000164)  returns 0x400 (0008ms, 0443ms total)
T1D50 000:996 JLINK_WriteReg(R0, 0x08001400)  returns 0x00 (0000ms, 0443ms total)
T1D50 000:996 JLINK_WriteReg(R1, 0x00000400)  returns 0x00 (0000ms, 0443ms total)
T1D50 000:996 JLINK_WriteReg(R2, 0x20000164)  returns 0x00 (0000ms, 0443ms total)
T1D50 000:996 JLINK_WriteReg(R3, 0x00000000)  returns 0x00 (0000ms, 0443ms total)
T1D50 000:996 JLINK_WriteReg(R4, 0x00000000)  returns 0x00 (0000ms, 0443ms total)
T1D50 000:996 JLINK_WriteReg(R5, 0x00000000)  returns 0x00 (0000ms, 0443ms total)
T1D50 000:996 JLINK_WriteReg(R6, 0x00000000)  returns 0x00 (0000ms, 0443ms total)
T1D50 000:996 JLINK_WriteReg(R7, 0x00000000)  returns 0x00 (0000ms, 0443ms total)
T1D50 000:996 JLINK_WriteReg(R8, 0x00000000)  returns 0x00 (0000ms, 0443ms total)
T1D50 000:996 JLINK_WriteReg(R9, 0x20000160)  returns 0x00 (0000ms, 0443ms total)
T1D50 000:996 JLINK_WriteReg(R10, 0x00000000)  returns 0x00 (0000ms, 0443ms total)
T1D50 000:996 JLINK_WriteReg(R11, 0x00000000)  returns 0x00 (0000ms, 0443ms total)
T1D50 000:996 JLINK_WriteReg(R12, 0x00000000)  returns 0x00 (0000ms, 0443ms total)
T1D50 000:996 JLINK_WriteReg(R13 (SP), 0x20000800)  returns 0x00 (0000ms, 0443ms total)
T1D50 000:996 JLINK_WriteReg(R14, 0x20000001)  returns 0x00 (0000ms, 0443ms total)
T1D50 000:996 JLINK_WriteReg(R15 (PC), 0x200000F4)  returns 0x00 (0000ms, 0443ms total)
T1D50 000:996 JLINK_WriteReg(XPSR, 0x01000000)  returns 0x00 (0000ms, 0443ms total)
T1D50 000:996 JLINK_WriteReg(MSP, 0x20000800)  returns 0x00 (0000ms, 0443ms total)
T1D50 000:996 JLINK_WriteReg(PSP, 0x20000800)  returns 0x00 (0001ms, 0444ms total)
T1D50 000:997 JLINK_WriteReg(CFBP, 0x00000000)  returns 0x00 (0000ms, 0444ms total)
T1D50 000:997 JLINK_SetBPEx(Addr = 0x20000000, Type = 0xFFFFFFF2)  returns 0x0000000A (0000ms, 0444ms total)
T1D50 000:997 JLINK_Go() -- CPU_ReadMem(4 bytes @ 0xE0001000) (0002ms, 0446ms total)
T1D50 000:999 JLINK_IsHalted()  returns FALSE (0000ms, 0446ms total)
T1D50 001:003 JLINK_IsHalted()  returns FALSE (0000ms, 0446ms total)
T1D50 001:005 JLINK_IsHalted()  returns FALSE (0000ms, 0446ms total)
T1D50 001:007 JLINK_IsHalted()  returns FALSE (0000ms, 0446ms total)
T1D50 001:009 JLINK_IsHalted()  returns FALSE (0000ms, 0446ms total)
T1D50 001:011 JLINK_IsHalted()  returns FALSE (0000ms, 0446ms total)
T1D50 001:013 JLINK_IsHalted()  returns FALSE (0000ms, 0446ms total)
T1D50 001:015 JLINK_IsHalted()  returns FALSE (0000ms, 0446ms total)
T1D50 001:017 JLINK_IsHalted()  returns FALSE (0000ms, 0446ms total)
T1D50 001:019 JLINK_IsHalted()  returns FALSE (0000ms, 0446ms total)
T1D50 001:021 JLINK_IsHalted()  returns FALSE (0000ms, 0446ms total)
T1D50 001:023 JLINK_IsHalted()  returns FALSE (0000ms, 0446ms total)
T1D50 001:025 JLINK_IsHalted()  returns FALSE (0000ms, 0446ms total)
T1D50 001:027 JLINK_IsHalted()  returns FALSE (0000ms, 0446ms total)
T1D50 001:029 JLINK_IsHalted()  returns FALSE (0000ms, 0446ms total)
T1D50 001:031 JLINK_IsHalted() -- CPU_ReadMem(2 bytes @ 0x20000000)  returns TRUE (0004ms, 0450ms total)
T1D50 001:035 JLINK_ReadReg(R15 (PC))  returns 0x20000000 (0000ms, 0446ms total)
T1D50 001:035 JLINK_ClrBPEx(BPHandle = 0x0000000A)  returns 0x00 (0000ms, 0446ms total)
T1D50 001:035 JLINK_ReadReg(R0)  returns 0x00000000 (0000ms, 0446ms total)
T1D50 001:036 JLINK_WriteMem(0x20000164, 0x0400 Bytes, ...) - Data: 88 1C 00 20 88 1C 00 20 31 49 01 43 31 4A 11 60 ... -- CPU_WriteMem(1024 bytes @ 0x20000164)  returns 0x400 (0007ms, 0453ms total)
T1D50 001:043 JLINK_WriteReg(R0, 0x08001800)  returns 0x00 (0000ms, 0453ms total)
T1D50 001:043 JLINK_WriteReg(R1, 0x00000400)  returns 0x00 (0000ms, 0453ms total)
T1D50 001:044 JLINK_WriteReg(R2, 0x20000164)  returns 0x00 (0000ms, 0454ms total)
T1D50 001:044 JLINK_WriteReg(R3, 0x00000000)  returns 0x00 (0000ms, 0454ms total)
T1D50 001:044 JLINK_WriteReg(R4, 0x00000000)  returns 0x00 (0000ms, 0454ms total)
T1D50 001:044 JLINK_WriteReg(R5, 0x00000000)  returns 0x00 (0000ms, 0454ms total)
T1D50 001:044 JLINK_WriteReg(R6, 0x00000000)  returns 0x00 (0000ms, 0454ms total)
T1D50 001:044 JLINK_WriteReg(R7, 0x00000000)  returns 0x00 (0000ms, 0454ms total)
T1D50 001:044 JLINK_WriteReg(R8, 0x00000000)  returns 0x00 (0000ms, 0454ms total)
T1D50 001:044 JLINK_WriteReg(R9, 0x20000160)  returns 0x00 (0000ms, 0454ms total)
T1D50 001:044 JLINK_WriteReg(R10, 0x00000000)  returns 0x00 (0000ms, 0454ms total)
T1D50 001:044 JLINK_WriteReg(R11, 0x00000000)  returns 0x00 (0000ms, 0454ms total)
T1D50 001:044 JLINK_WriteReg(R12, 0x00000000)  returns 0x00 (0000ms, 0454ms total)
T1D50 001:044 JLINK_WriteReg(R13 (SP), 0x20000800)  returns 0x00 (0000ms, 0454ms total)
T1D50 001:044 JLINK_WriteReg(R14, 0x20000001)  returns 0x00 (0000ms, 0454ms total)
T1D50 001:044 JLINK_WriteReg(R15 (PC), 0x200000F4)  returns 0x00 (0000ms, 0454ms total)
T1D50 001:044 JLINK_WriteReg(XPSR, 0x01000000)  returns 0x00 (0000ms, 0454ms total)
T1D50 001:044 JLINK_WriteReg(MSP, 0x20000800)  returns 0x00 (0000ms, 0454ms total)
T1D50 001:044 JLINK_WriteReg(PSP, 0x20000800)  returns 0x00 (0000ms, 0454ms total)
T1D50 001:044 JLINK_WriteReg(CFBP, 0x00000000)  returns 0x00 (0000ms, 0454ms total)
T1D50 001:044 JLINK_SetBPEx(Addr = 0x20000000, Type = 0xFFFFFFF2)  returns 0x0000000B (0000ms, 0454ms total)
T1D50 001:044 JLINK_Go() -- CPU_ReadMem(4 bytes @ 0xE0001000) (0002ms, 0456ms total)
T1D50 001:046 JLINK_IsHalted()  returns FALSE (0001ms, 0457ms total)
T1D50 001:050 JLINK_IsHalted()  returns FALSE (0000ms, 0456ms total)
T1D50 001:052 JLINK_IsHalted()  returns FALSE (0000ms, 0456ms total)
T1D50 001:056 JLINK_IsHalted()  returns FALSE (0000ms, 0456ms total)
T1D50 001:058 JLINK_IsHalted()  returns FALSE (0000ms, 0456ms total)
T1D50 001:060 JLINK_IsHalted()  returns FALSE (0000ms, 0456ms total)
T1D50 001:088 JLINK_IsHalted() -- CPU_ReadMem(2 bytes @ 0x20000000)  returns TRUE (0004ms, 0460ms total)
T1D50 001:092 JLINK_ReadReg(R15 (PC))  returns 0x20000000 (0000ms, 0456ms total)
T1D50 001:092 JLINK_ClrBPEx(BPHandle = 0x0000000B)  returns 0x00 (0000ms, 0456ms total)
T1D50 001:092 JLINK_ReadReg(R0)  returns 0x00000000 (0000ms, 0456ms total)
T1D50 001:093 JLINK_WriteMem(0x20000164, 0x0400 Bytes, ...) - Data: 00 FA 04 F4 23 43 0C 4C 08 34 8D 10 44 F8 25 30 ... -- CPU_WriteMem(1024 bytes @ 0x20000164)  returns 0x400 (0007ms, 0463ms total)
T1D50 001:101 JLINK_WriteReg(R0, 0x08001C00)  returns 0x00 (0000ms, 0463ms total)
T1D50 001:101 JLINK_WriteReg(R1, 0x00000400)  returns 0x00 (0000ms, 0463ms total)
T1D50 001:101 JLINK_WriteReg(R2, 0x20000164)  returns 0x00 (0000ms, 0463ms total)
T1D50 001:101 JLINK_WriteReg(R3, 0x00000000)  returns 0x00 (0000ms, 0463ms total)
T1D50 001:101 JLINK_WriteReg(R4, 0x00000000)  returns 0x00 (0000ms, 0463ms total)
T1D50 001:101 JLINK_WriteReg(R5, 0x00000000)  returns 0x00 (0000ms, 0463ms total)
T1D50 001:101 JLINK_WriteReg(R6, 0x00000000)  returns 0x00 (0000ms, 0463ms total)
T1D50 001:101 JLINK_WriteReg(R7, 0x00000000)  returns 0x00 (0000ms, 0463ms total)
T1D50 001:101 JLINK_WriteReg(R8, 0x00000000)  returns 0x00 (0000ms, 0463ms total)
T1D50 001:101 JLINK_WriteReg(R9, 0x20000160)  returns 0x00 (0000ms, 0463ms total)
T1D50 001:102 JLINK_WriteReg(R10, 0x00000000)  returns 0x00 (0000ms, 0464ms total)
T1D50 001:102 JLINK_WriteReg(R11, 0x00000000)  returns 0x00 (0000ms, 0464ms total)
T1D50 001:102 JLINK_WriteReg(R12, 0x00000000)  returns 0x00 (0000ms, 0464ms total)
T1D50 001:102 JLINK_WriteReg(R13 (SP), 0x20000800)  returns 0x00 (0000ms, 0464ms total)
T1D50 001:102 JLINK_WriteReg(R14, 0x20000001)  returns 0x00 (0000ms, 0464ms total)
T1D50 001:102 JLINK_WriteReg(R15 (PC), 0x200000F4)  returns 0x00 (0000ms, 0464ms total)
T1D50 001:102 JLINK_WriteReg(XPSR, 0x01000000)  returns 0x00 (0000ms, 0464ms total)
T1D50 001:102 JLINK_WriteReg(MSP, 0x20000800)  returns 0x00 (0000ms, 0464ms total)
T1D50 001:102 JLINK_WriteReg(PSP, 0x20000800)  returns 0x00 (0000ms, 0464ms total)
T1D50 001:102 JLINK_WriteReg(CFBP, 0x00000000)  returns 0x00 (0000ms, 0464ms total)
T1D50 001:102 JLINK_SetBPEx(Addr = 0x20000000, Type = 0xFFFFFFF2)  returns 0x0000000C (0000ms, 0464ms total)
T1D50 001:102 JLINK_Go() -- CPU_ReadMem(4 bytes @ 0xE0001000) (0002ms, 0466ms total)
T1D50 001:104 JLINK_IsHalted()  returns FALSE (0001ms, 0467ms total)
T1D50 001:108 JLINK_IsHalted()  returns FALSE (0000ms, 0466ms total)
T1D50 001:110 JLINK_IsHalted()  returns FALSE (0000ms, 0466ms total)
T1D50 001:112 JLINK_IsHalted()  returns FALSE (0000ms, 0466ms total)
T1D50 001:114 JLINK_IsHalted()  returns FALSE (0000ms, 0466ms total)
T1D50 001:116 JLINK_IsHalted()  returns FALSE (0000ms, 0466ms total)
T1D50 001:118 JLINK_IsHalted()  returns FALSE (0000ms, 0466ms total)
T1D50 001:120 JLINK_IsHalted()  returns FALSE (0000ms, 0466ms total)
T1D50 001:122 JLINK_IsHalted()  returns FALSE (0000ms, 0466ms total)
T1D50 001:124 JLINK_IsHalted()  returns FALSE (0000ms, 0466ms total)
T1D50 001:126 JLINK_IsHalted()  returns FALSE (0000ms, 0466ms total)
T1D50 001:128 JLINK_IsHalted()  returns FALSE (0000ms, 0466ms total)
T1D50 001:130 JLINK_IsHalted()  returns FALSE (0000ms, 0466ms total)
T1D50 001:132 JLINK_IsHalted()  returns FALSE (0000ms, 0466ms total)
T1D50 001:134 JLINK_IsHalted()  returns FALSE (0000ms, 0466ms total)
T1D50 001:136 JLINK_IsHalted() -- CPU_ReadMem(2 bytes @ 0x20000000)  returns TRUE (0004ms, 0470ms total)
T1D50 001:140 JLINK_ReadReg(R15 (PC))  returns 0x20000000 (0000ms, 0466ms total)
T1D50 001:140 JLINK_ClrBPEx(BPHandle = 0x0000000C)  returns 0x00 (0000ms, 0466ms total)
T1D50 001:140 JLINK_ReadReg(R0)  returns 0x00000000 (0000ms, 0466ms total)
T1D50 001:140 JLINK_WriteMem(0x20000164, 0x0400 Bytes, ...) - Data: 32 E0 F6 48 84 42 09 D1 01 21 48 04 FF F7 AD FF ... -- CPU_WriteMem(1024 bytes @ 0x20000164)  returns 0x400 (0008ms, 0474ms total)
T1D50 001:148 JLINK_WriteReg(R0, 0x08002000)  returns 0x00 (0000ms, 0474ms total)
T1D50 001:148 JLINK_WriteReg(R1, 0x00000400)  returns 0x00 (0000ms, 0474ms total)
T1D50 001:148 JLINK_WriteReg(R2, 0x20000164)  returns 0x00 (0000ms, 0474ms total)
T1D50 001:148 JLINK_WriteReg(R3, 0x00000000)  returns 0x00 (0001ms, 0475ms total)
T1D50 001:149 JLINK_WriteReg(R4, 0x00000000)  returns 0x00 (0000ms, 0475ms total)
T1D50 001:149 JLINK_WriteReg(R5, 0x00000000)  returns 0x00 (0000ms, 0475ms total)
T1D50 001:149 JLINK_WriteReg(R6, 0x00000000)  returns 0x00 (0000ms, 0475ms total)
T1D50 001:149 JLINK_WriteReg(R7, 0x00000000)  returns 0x00 (0000ms, 0475ms total)
T1D50 001:149 JLINK_WriteReg(R8, 0x00000000)  returns 0x00 (0000ms, 0475ms total)
T1D50 001:149 JLINK_WriteReg(R9, 0x20000160)  returns 0x00 (0000ms, 0475ms total)
T1D50 001:149 JLINK_WriteReg(R10, 0x00000000)  returns 0x00 (0000ms, 0475ms total)
T1D50 001:149 JLINK_WriteReg(R11, 0x00000000)  returns 0x00 (0000ms, 0475ms total)
T1D50 001:149 JLINK_WriteReg(R12, 0x00000000)  returns 0x00 (0000ms, 0475ms total)
T1D50 001:149 JLINK_WriteReg(R13 (SP), 0x20000800)  returns 0x00 (0000ms, 0475ms total)
T1D50 001:149 JLINK_WriteReg(R14, 0x20000001)  returns 0x00 (0000ms, 0475ms total)
T1D50 001:149 JLINK_WriteReg(R15 (PC), 0x200000F4)  returns 0x00 (0000ms, 0475ms total)
T1D50 001:149 JLINK_WriteReg(XPSR, 0x01000000)  returns 0x00 (0000ms, 0475ms total)
T1D50 001:149 JLINK_WriteReg(MSP, 0x20000800)  returns 0x00 (0000ms, 0475ms total)
T1D50 001:149 JLINK_WriteReg(PSP, 0x20000800)  returns 0x00 (0000ms, 0475ms total)
T1D50 001:149 JLINK_WriteReg(CFBP, 0x00000000)  returns 0x00 (0000ms, 0475ms total)
T1D50 001:149 JLINK_SetBPEx(Addr = 0x20000000, Type = 0xFFFFFFF2)  returns 0x0000000D (0000ms, 0475ms total)
T1D50 001:149 JLINK_Go() -- CPU_ReadMem(4 bytes @ 0xE0001000) (0002ms, 0477ms total)
T1D50 001:151 JLINK_IsHalted()  returns FALSE (0001ms, 0478ms total)
T1D50 001:154 JLINK_IsHalted()  returns FALSE (0000ms, 0477ms total)
T1D50 001:156 JLINK_IsHalted()  returns FALSE (0000ms, 0477ms total)
T1D50 001:158 JLINK_IsHalted()  returns FALSE (0000ms, 0477ms total)
T1D50 001:160 JLINK_IsHalted()  returns FALSE (0000ms, 0477ms total)
T1D50 001:162 JLINK_IsHalted()  returns FALSE (0000ms, 0477ms total)
T1D50 001:164 JLINK_IsHalted()  returns FALSE (0000ms, 0477ms total)
T1D50 001:166 JLINK_IsHalted()  returns FALSE (0000ms, 0477ms total)
T1D50 001:168 JLINK_IsHalted()  returns FALSE (0000ms, 0477ms total)
T1D50 001:170 JLINK_IsHalted()  returns FALSE (0000ms, 0477ms total)
T1D50 001:172 JLINK_IsHalted()  returns FALSE (0000ms, 0477ms total)
T1D50 001:174 JLINK_IsHalted()  returns FALSE (0000ms, 0477ms total)
T1D50 001:176 JLINK_IsHalted()  returns FALSE (0000ms, 0477ms total)
T1D50 001:202 JLINK_IsHalted() -- CPU_ReadMem(2 bytes @ 0x20000000)  returns TRUE (0004ms, 0481ms total)
T1D50 001:206 JLINK_ReadReg(R15 (PC))  returns 0x20000000 (0000ms, 0477ms total)
T1D50 001:206 JLINK_ClrBPEx(BPHandle = 0x0000000D)  returns 0x00 (0000ms, 0477ms total)
T1D50 001:206 JLINK_ReadReg(R0)  returns 0x00000000 (0000ms, 0477ms total)
T1D50 001:207 JLINK_WriteMem(0x20000164, 0x0400 Bytes, ...) - Data: E0 14 FF F7 A5 FD C4 E0 B4 F1 80 4F 08 D1 01 21 ... -- CPU_WriteMem(1024 bytes @ 0x20000164)  returns 0x400 (0008ms, 0485ms total)
T1D50 001:215 JLINK_WriteReg(R0, 0x08002400)  returns 0x00 (0000ms, 0485ms total)
T1D50 001:215 JLINK_WriteReg(R1, 0x00000400)  returns 0x00 (0000ms, 0485ms total)
T1D50 001:215 JLINK_WriteReg(R2, 0x20000164)  returns 0x00 (0000ms, 0485ms total)
T1D50 001:215 JLINK_WriteReg(R3, 0x00000000)  returns 0x00 (0000ms, 0485ms total)
T1D50 001:215 JLINK_WriteReg(R4, 0x00000000)  returns 0x00 (0000ms, 0485ms total)
T1D50 001:215 JLINK_WriteReg(R5, 0x00000000)  returns 0x00 (0001ms, 0486ms total)
T1D50 001:216 JLINK_WriteReg(R6, 0x00000000)  returns 0x00 (0000ms, 0486ms total)
T1D50 001:216 JLINK_WriteReg(R7, 0x00000000)  returns 0x00 (0000ms, 0486ms total)
T1D50 001:216 JLINK_WriteReg(R8, 0x00000000)  returns 0x00 (0000ms, 0486ms total)
T1D50 001:216 JLINK_WriteReg(R9, 0x20000160)  returns 0x00 (0000ms, 0486ms total)
T1D50 001:216 JLINK_WriteReg(R10, 0x00000000)  returns 0x00 (0000ms, 0486ms total)
T1D50 001:216 JLINK_WriteReg(R11, 0x00000000)  returns 0x00 (0000ms, 0486ms total)
T1D50 001:216 JLINK_WriteReg(R12, 0x00000000)  returns 0x00 (0000ms, 0486ms total)
T1D50 001:216 JLINK_WriteReg(R13 (SP), 0x20000800)  returns 0x00 (0000ms, 0486ms total)
T1D50 001:216 JLINK_WriteReg(R14, 0x20000001)  returns 0x00 (0000ms, 0486ms total)
T1D50 001:216 JLINK_WriteReg(R15 (PC), 0x200000F4)  returns 0x00 (0000ms, 0486ms total)
T1D50 001:216 JLINK_WriteReg(XPSR, 0x01000000)  returns 0x00 (0000ms, 0486ms total)
T1D50 001:216 JLINK_WriteReg(MSP, 0x20000800)  returns 0x00 (0000ms, 0486ms total)
T1D50 001:216 JLINK_WriteReg(PSP, 0x20000800)  returns 0x00 (0000ms, 0486ms total)
T1D50 001:216 JLINK_WriteReg(CFBP, 0x00000000)  returns 0x00 (0000ms, 0486ms total)
T1D50 001:216 JLINK_SetBPEx(Addr = 0x20000000, Type = 0xFFFFFFF2)  returns 0x0000000E (0000ms, 0486ms total)
T1D50 001:216 JLINK_Go() -- CPU_ReadMem(4 bytes @ 0xE0001000) (0001ms, 0487ms total)
T1D50 001:217 JLINK_IsHalted()  returns FALSE (0002ms, 0489ms total)
T1D50 001:221 JLINK_IsHalted()  returns FALSE (0000ms, 0487ms total)
T1D50 001:223 JLINK_IsHalted()  returns FALSE (0000ms, 0487ms total)
T1D50 001:225 JLINK_IsHalted()  returns FALSE (0000ms, 0487ms total)
T1D50 001:227 JLINK_IsHalted()  returns FALSE (0000ms, 0487ms total)
T1D50 001:229 JLINK_IsHalted()  returns FALSE (0000ms, 0487ms total)
T1D50 001:231 JLINK_IsHalted()  returns FALSE (0000ms, 0487ms total)
T1D50 001:233 JLINK_IsHalted()  returns FALSE (0000ms, 0487ms total)
T1D50 001:237 JLINK_IsHalted()  returns FALSE (0000ms, 0487ms total)
T1D50 001:239 JLINK_IsHalted()  returns FALSE (0000ms, 0487ms total)
T1D50 001:241 JLINK_IsHalted()  returns FALSE (0000ms, 0487ms total)
